<Qucs Dataset 0.0.19>
<indep acfrequency 19>
  +5.00000000000000000000e+001
  +5.00000000000000000000e+001
  +5.00000000000000000000e+001
  +5.00000000000000000000e+001
  +5.00000000000000000000e+001
  +5.00000000000000000000e+001
  +5.00000000000000000000e+001
  +5.00000000000000000000e+001
  +5.00000000000000000000e+001
  +5.00000000000000000000e+001
  +5.00000000000000000000e+001
  +5.00000000000000000000e+001
  +5.00000000000000000000e+001
  +5.00000000000000000000e+001
  +5.00000000000000000000e+001
  +5.00000000000000000000e+001
  +5.00000000000000000000e+001
  +5.00000000000000000000e+001
  +5.00000000000000000000e+001
</indep>
<dep V1.i acfrequency>
  -2.19951497697067850368e+001+j8.68416417107293483468e+001
  -2.19951497697067850368e+001+j8.68416417107293483468e+001
  -2.19951497697067850368e+001+j8.68416417107293483468e+001
  -2.19951497697067850368e+001+j8.68416417107293483468e+001
  -2.19951497697067850368e+001+j8.68416417107293483468e+001
  -2.19951497697067850368e+001+j8.68416417107293483468e+001
  -2.19951497697067850368e+001+j8.68416417107293483468e+001
  -2.19951497697067850368e+001+j8.68416417107293483468e+001
  -2.19951497697067850368e+001+j8.68416417107293483468e+001
  -2.19951497697067850368e+001+j8.68416417107293483468e+001
  -2.19951497697067850368e+001+j8.68416417107293483468e+001
  -2.19951497697067850368e+001+j8.68416417107293483468e+001
  -2.19951497697067850368e+001+j8.68416417107293483468e+001
  -2.19951497697067850368e+001+j8.68416417107293483468e+001
  -2.19951497697067850368e+001+j8.68416417107293483468e+001
  -2.19951497697067850368e+001+j8.68416417107293483468e+001
  -2.19951497697067850368e+001+j8.68416417107293483468e+001
  -2.19951497697067850368e+001+j8.68416417107293483468e+001
  -2.19951497697067850368e+001+j8.68416417107293483468e+001
</dep>
<dep Pr1.i acfrequency>
  +2.19951497697067850368e+001-j8.68416417107293483468e+001
  +2.19951497697067850368e+001-j8.68416417107293483468e+001
  +2.19951497697067850368e+001-j8.68416417107293483468e+001
  +2.19951497697067850368e+001-j8.68416417107293483468e+001
  +2.19951497697067850368e+001-j8.68416417107293483468e+001
  +2.19951497697067850368e+001-j8.68416417107293483468e+001
  +2.19951497697067850368e+001-j8.68416417107293483468e+001
  +2.19951497697067850368e+001-j8.68416417107293483468e+001
  +2.19951497697067850368e+001-j8.68416417107293483468e+001
  +2.19951497697067850368e+001-j8.68416417107293483468e+001
  +2.19951497697067850368e+001-j8.68416417107293483468e+001
  +2.19951497697067850368e+001-j8.68416417107293483468e+001
  +2.19951497697067850368e+001-j8.68416417107293483468e+001
  +2.19951497697067850368e+001-j8.68416417107293483468e+001
  +2.19951497697067850368e+001-j8.68416417107293483468e+001
  +2.19951497697067850368e+001-j8.68416417107293483468e+001
  +2.19951497697067850368e+001-j8.68416417107293483468e+001
  +2.19951497697067850368e+001-j8.68416417107293483468e+001
  +2.19951497697067850368e+001-j8.68416417107293483468e+001
</dep>
<dep _net0.v acfrequency>
  +5.40000000000000000000e+002
  +5.40000000000000000000e+002
  +5.40000000000000000000e+002
  +5.40000000000000000000e+002
  +5.40000000000000000000e+002
  +5.40000000000000000000e+002
  +5.40000000000000000000e+002
  +5.40000000000000000000e+002
  +5.40000000000000000000e+002
  +5.40000000000000000000e+002
  +5.40000000000000000000e+002
  +5.40000000000000000000e+002
  +5.40000000000000000000e+002
  +5.40000000000000000000e+002
  +5.40000000000000000000e+002
  +5.40000000000000000000e+002
  +5.40000000000000000000e+002
  +5.40000000000000000000e+002
  +5.40000000000000000000e+002
</dep>
<dep _net1.v acfrequency>
  +5.40000000000000000000e+002
  +5.40000000000000000000e+002
  +5.40000000000000000000e+002
  +5.40000000000000000000e+002
  +5.40000000000000000000e+002
  +5.40000000000000000000e+002
  +5.40000000000000000000e+002
  +5.40000000000000000000e+002
  +5.40000000000000000000e+002
  +5.40000000000000000000e+002
  +5.40000000000000000000e+002
  +5.40000000000000000000e+002
  +5.40000000000000000000e+002
  +5.40000000000000000000e+002
  +5.40000000000000000000e+002
  +5.40000000000000000000e+002
  +5.40000000000000000000e+002
  +5.40000000000000000000e+002
  +5.40000000000000000000e+002
</dep>
<dep _net2.v acfrequency>
  +5.07447178340834000210e+002+j1.28525629731879462270e+002
  +5.07447178340834000210e+002+j1.28525629731879462270e+002
  +5.07447178340834000210e+002+j1.28525629731879462270e+002
  +5.07447178340834000210e+002+j1.28525629731879462270e+002
  +5.07447178340834000210e+002+j1.28525629731879462270e+002
  +5.07447178340834000210e+002+j1.28525629731879462270e+002
  +5.07447178340834000210e+002+j1.28525629731879462270e+002
  +5.07447178340834000210e+002+j1.28525629731879462270e+002
  +5.07447178340834000210e+002+j1.28525629731879462270e+002
  +5.07447178340834000210e+002+j1.28525629731879462270e+002
  +5.07447178340834000210e+002+j1.28525629731879462270e+002
  +5.07447178340834000210e+002+j1.28525629731879462270e+002
  +5.07447178340834000210e+002+j1.28525629731879462270e+002
  +5.07447178340834000210e+002+j1.28525629731879462270e+002
  +5.07447178340834000210e+002+j1.28525629731879462270e+002
  +5.07447178340834000210e+002+j1.28525629731879462270e+002
  +5.07447178340834000210e+002+j1.28525629731879462270e+002
  +5.07447178340834000210e+002+j1.28525629731879462270e+002
  +5.07447178340834000210e+002+j1.28525629731879462270e+002
</dep>
