<Qucs Dataset 0.0.19>
<indep acfrequency 19>
  +5.00000000000000000000e+001
  +5.00000000000000000000e+001
  +5.00000000000000000000e+001
  +5.00000000000000000000e+001
  +5.00000000000000000000e+001
  +5.00000000000000000000e+001
  +5.00000000000000000000e+001
  +5.00000000000000000000e+001
  +5.00000000000000000000e+001
  +5.00000000000000000000e+001
  +5.00000000000000000000e+001
  +5.00000000000000000000e+001
  +5.00000000000000000000e+001
  +5.00000000000000000000e+001
  +5.00000000000000000000e+001
  +5.00000000000000000000e+001
  +5.00000000000000000000e+001
  +5.00000000000000000000e+001
  +5.00000000000000000000e+001
</indep>
<dep Pr1.i acfrequency>
  +1.00000000000000000000e+001-j2.82942121052258386271e+001
  +1.00000000000000000000e+001-j2.82942121052258386271e+001
  +1.00000000000000000000e+001-j2.82942121052258386271e+001
  +1.00000000000000000000e+001-j2.82942121052258386271e+001
  +1.00000000000000000000e+001-j2.82942121052258386271e+001
  +1.00000000000000000000e+001-j2.82942121052258386271e+001
  +1.00000000000000000000e+001-j2.82942121052258386271e+001
  +1.00000000000000000000e+001-j2.82942121052258386271e+001
  +1.00000000000000000000e+001-j2.82942121052258386271e+001
  +1.00000000000000000000e+001-j2.82942121052258386271e+001
  +1.00000000000000000000e+001-j2.82942121052258386271e+001
  +1.00000000000000000000e+001-j2.82942121052258386271e+001
  +1.00000000000000000000e+001-j2.82942121052258386271e+001
  +1.00000000000000000000e+001-j2.82942121052258386271e+001
  +1.00000000000000000000e+001-j2.82942121052258386271e+001
  +1.00000000000000000000e+001-j2.82942121052258386271e+001
  +1.00000000000000000000e+001-j2.82942121052258386271e+001
  +1.00000000000000000000e+001-j2.82942121052258386271e+001
  +1.00000000000000000000e+001-j2.82942121052258386271e+001
</dep>
<dep V1.i acfrequency>
  -1.00000000000000000000e+001+j2.82942121052258386271e+001
  -1.00000000000000000000e+001+j2.82942121052258386271e+001
  -1.00000000000000000000e+001+j2.82942121052258386271e+001
  -1.00000000000000000000e+001+j2.82942121052258386271e+001
  -1.00000000000000000000e+001+j2.82942121052258386271e+001
  -1.00000000000000000000e+001+j2.82942121052258386271e+001
  -1.00000000000000000000e+001+j2.82942121052258386271e+001
  -1.00000000000000000000e+001+j2.82942121052258386271e+001
  -1.00000000000000000000e+001+j2.82942121052258386271e+001
  -1.00000000000000000000e+001+j2.82942121052258386271e+001
  -1.00000000000000000000e+001+j2.82942121052258386271e+001
  -1.00000000000000000000e+001+j2.82942121052258386271e+001
  -1.00000000000000000000e+001+j2.82942121052258386271e+001
  -1.00000000000000000000e+001+j2.82942121052258386271e+001
  -1.00000000000000000000e+001+j2.82942121052258386271e+001
  -1.00000000000000000000e+001+j2.82942121052258386271e+001
  -1.00000000000000000000e+001+j2.82942121052258386271e+001
  -1.00000000000000000000e+001+j2.82942121052258386271e+001
  -1.00000000000000000000e+001+j2.82942121052258386271e+001
</dep>
<dep _net0.v acfrequency>
  +1.00000000000000000000e+003
  +1.00000000000000000000e+003
  +1.00000000000000000000e+003
  +1.00000000000000000000e+003
  +1.00000000000000000000e+003
  +1.00000000000000000000e+003
  +1.00000000000000000000e+003
  +1.00000000000000000000e+003
  +1.00000000000000000000e+003
  +1.00000000000000000000e+003
  +1.00000000000000000000e+003
  +1.00000000000000000000e+003
  +1.00000000000000000000e+003
  +1.00000000000000000000e+003
  +1.00000000000000000000e+003
  +1.00000000000000000000e+003
  +1.00000000000000000000e+003
  +1.00000000000000000000e+003
  +1.00000000000000000000e+003
</dep>
<dep _net1.v acfrequency>
  +1.00000000000000000000e+003
  +1.00000000000000000000e+003
  +1.00000000000000000000e+003
  +1.00000000000000000000e+003
  +1.00000000000000000000e+003
  +1.00000000000000000000e+003
  +1.00000000000000000000e+003
  +1.00000000000000000000e+003
  +1.00000000000000000000e+003
  +1.00000000000000000000e+003
  +1.00000000000000000000e+003
  +1.00000000000000000000e+003
  +1.00000000000000000000e+003
  +1.00000000000000000000e+003
  +1.00000000000000000000e+003
  +1.00000000000000000000e+003
  +1.00000000000000000000e+003
  +1.00000000000000000000e+003
  +1.00000000000000000000e+003
</dep>
